T6D9C 000:038.530   SEGGER J-Link V7.22b Log File
T6D9C 000:038.669   DLL Compiled: Jun 17 2021 17:22:49
T6D9C 000:038.691   Logging started @ 2025-11-18 17:14
T6D9C 000:038.721 - 38.732ms
T6D9C 000:038.750 JLINK_SetWarnOutHandler(...)
T6D9C 000:038.774 - 0.034ms
T6D9C 000:038.796 JLINK_OpenEx(...)
T6D9C 000:040.571   Firmware: J-Link ARM-OB STM32 compiled Aug 22 2012 19:52:04
T6D9C 000:041.136   Firmware: J-Link ARM-OB STM32 compiled Aug 22 2012 19:52:04
T6D9C 000:043.997   Hardware: V7.00
T6D9C 000:044.040   S/N: 20090928
T6D9C 000:044.072   OEM: SEGGER
T6D9C 000:044.105   Feature(s): RDI,FlashDL,FlashBP,JFlash,GDB
T6D9C 000:045.663   TELNET listener socket opened on port 19021
T6D9C 000:045.859   WEBSRV Starting webserver
T6D9C 000:046.018   WEBSRV Webserver running on local port 19080
T6D9C 000:046.054 - 7.268ms returns "O.K."
T6D9C 000:046.085 JLINK_GetEmuCaps()
T6D9C 000:046.107 - 0.032ms returns 0x88EA5833
T6D9C 000:046.133 JLINK_TIF_GetAvailable(...)
T6D9C 000:046.564 - 0.446ms
T6D9C 000:046.596 JLINK_SetErrorOutHandler(...)
T6D9C 000:046.617 - 0.032ms
T6D9C 000:046.648 JLINK_ExecCommand("ProjectFile = "D:\SU\singlechip\N32\N32WB031\my_project\hid_keyboard\MDK-ARM\JLinkSettings.ini"", ...). 
T6D9C 000:058.925   Device "CORTEX-M0" selected.
T6D9C 000:059.533 - 12.900ms returns 0x00
T6D9C 000:062.356 JLINK_ExecCommand("Device = N32WB031", ...). 
T6D9C 000:063.457   Device "CORTEX-M0" selected.
T6D9C 000:064.137 - 1.778ms returns 0x00
T6D9C 000:064.210 JLINK_GetHardwareVersion()
T6D9C 000:064.260 - 0.073ms returns 70000
T6D9C 000:064.310 JLINK_GetDLLVersion()
T6D9C 000:064.358 - 0.069ms returns 72202
T6D9C 000:064.391 JLINK_GetOEMString(...)
T6D9C 000:064.414 JLINK_GetFirmwareString(...)
T6D9C 000:064.441 - 0.038ms
T6D9C 000:073.657 JLINK_GetDLLVersion()
T6D9C 000:073.695 - 0.049ms returns 72202
T6D9C 000:073.718 JLINK_GetCompileDateTime()
T6D9C 000:073.739 - 0.032ms
T6D9C 000:076.341 JLINK_GetFirmwareString(...)
T6D9C 000:076.374 - 0.044ms
T6D9C 000:078.693 JLINK_GetHardwareVersion()
T6D9C 000:078.725 - 0.043ms returns 70000
T6D9C 000:080.887 JLINK_GetSN()
T6D9C 000:080.919 - 0.043ms returns 20090928
T6D9C 000:083.198 JLINK_GetOEMString(...)
T6D9C 000:087.496 JLINK_TIF_Select(JLINKARM_TIF_SWD)
T6D9C 000:088.586 - 1.104ms returns 0x00
T6D9C 000:088.614 JLINK_HasError()
T6D9C 000:088.641 JLINK_SetSpeed(5000)
T6D9C 000:088.949 - 0.319ms
T6D9C 000:088.974 JLINK_GetId()
T6D9C 000:093.849   Found SW-DP with ID 0x0BB11477
T6D9C 000:100.803   Old FW that does not support reading DPIDR via DAP jobs
T6D9C 000:110.963   DPv0 detected
T6D9C 000:113.121   Scanning AP map to find all available APs
T6D9C 000:120.048   AP[1]: Stopped AP scan as end of AP map has been reached
T6D9C 000:125.406   AP[0]: AHB-AP (IDR: 0x04770021)
T6D9C 000:127.741   Iterating through AP map to find AHB-AP to use
T6D9C 000:139.551   AP[0]: Core found
T6D9C 000:142.213   AP[0]: AHB-AP ROM base: 0xE00FF000
T6D9C 000:149.044   CPUID register: 0x410CC200. Implementer code: 0x41 (ARM)
T6D9C 000:152.344   Found Cortex-M0 r0p0, Little endian.
T6D9C 000:253.751   -- Max. mem block: 0x00002C18
T6D9C 000:254.099   CPU_ReadMem(4 bytes @ 0xE000EDF0)
T6D9C 000:254.756   CPU_WriteMem(4 bytes @ 0xE000EDF0)
T6D9C 000:255.433   CPU_ReadMem(4 bytes @ 0xE0002000)
T6D9C 000:259.463   FPUnit: 4 code (BP) slots and 0 literal slots
T6D9C 000:259.510   CPU_ReadMem(4 bytes @ 0xE000EDFC)
T6D9C 000:260.202   CPU_WriteMem(4 bytes @ 0xE000EDFC)
T6D9C 000:260.938   CPU_ReadMem(4 bytes @ 0xE0001000)
T6D9C 000:261.683   CPU_WriteMem(4 bytes @ 0xE0001000)
T6D9C 000:265.657   CoreSight components:
T6D9C 000:267.919   ROMTbl[0] @ E00FF000
T6D9C 000:267.965   CPU_ReadMem(64 bytes @ 0xE00FF000)
T6D9C 000:269.240   CPU_ReadMem(32 bytes @ 0xE000EFE0)
T6D9C 000:272.549   ROMTbl[0][0]: E000E000, CID: B105E00D, PID: 000BB008 SCS
T6D9C 000:272.593   CPU_ReadMem(32 bytes @ 0xE0001FE0)
T6D9C 000:276.027   ROMTbl[0][1]: E0001000, CID: B105E00D, PID: 000BB00A DWT
T6D9C 000:276.073   CPU_ReadMem(32 bytes @ 0xE0002FE0)
T6D9C 000:281.095   ROMTbl[0][2]: E0002000, CID: B105E00D, PID: 000BB00B FPB
T6D9C 000:282.052 - 193.096ms returns 0x0BB11477
T6D9C 000:282.092 JLINK_GetDLLVersion()
T6D9C 000:282.114 - 0.032ms returns 72202
T6D9C 000:282.140 JLINK_CORE_GetFound()
T6D9C 000:282.161 - 0.032ms returns 0x60000FF
T6D9C 000:282.186 JLINK_GetDebugInfo(0x100 = JLINKARM_ROM_TABLE_ADDR_INDEX)
T6D9C 000:282.208   Value=0xE00FF000
T6D9C 000:282.240 - 0.065ms returns 0
T6D9C 000:285.088 JLINK_GetDebugInfo(0x100 = JLINKARM_ROM_TABLE_ADDR_INDEX)
T6D9C 000:285.122   Value=0xE00FF000
T6D9C 000:285.155 - 0.077ms returns 0
T6D9C 000:285.177 JLINK_GetDebugInfo(0x101 = JLINKARM_DEBUG_INFO_ETM_ADDR_INDEX)
T6D9C 000:285.199   Value=0x00000000
T6D9C 000:285.231 - 0.064ms returns 0
T6D9C 000:285.257 JLINK_ReadMemEx(0xE0041FF0, 0x10 Bytes, Flags = 0x02000004)
T6D9C 000:285.291   CPU_ReadMem(16 bytes @ 0xE0041FF0)
T6D9C 000:286.045   Data:  00 00 00 00 00 00 00 00 00 00 00 00 00 00 00 00
T6D9C 000:286.088 - 0.842ms returns 16 (0x10)
T6D9C 000:286.113 JLINK_GetDebugInfo(0x102 = JLINKARM_DEBUG_INFO_MTB_ADDR_INDEX)
T6D9C 000:286.136   Value=0x00000000
T6D9C 000:286.168 - 0.065ms returns 0
T6D9C 000:286.191 JLINK_GetDebugInfo(0x103 = JLINKARM_DEBUG_INFO_TPIU_ADDR_INDEX)
T6D9C 000:286.212   Value=0x00000000
T6D9C 000:286.244 - 0.064ms returns 0
T6D9C 000:286.267 JLINK_ReadMemEx(0xE0040FF0, 0x10 Bytes, Flags = 0x02000004)
T6D9C 000:286.292   CPU_ReadMem(16 bytes @ 0xE0040FF0)
T6D9C 000:287.005   Data:  00 00 00 00 00 00 00 00 00 00 00 00 00 00 00 00
T6D9C 000:287.043 - 0.786ms returns 16 (0x10)
T6D9C 000:287.066 JLINK_GetDebugInfo(0x104 = JLINKARM_DEBUG_INFO_ITM_ADDR_INDEX)
T6D9C 000:287.088   Value=0xE0000000
T6D9C 000:287.120 - 0.065ms returns 0
T6D9C 000:287.143 JLINK_GetDebugInfo(0x105 = JLINKARM_DEBUG_INFO_DWT_ADDR_INDEX)
T6D9C 000:287.165   Value=0xE0001000
T6D9C 000:287.196 - 0.064ms returns 0
T6D9C 000:287.219 JLINK_GetDebugInfo(0x106 = JLINKARM_DEBUG_INFO_FPB_ADDR_INDEX)
T6D9C 000:287.240   Value=0xE0002000
T6D9C 000:287.272 - 0.064ms returns 0
T6D9C 000:287.294 JLINK_GetDebugInfo(0x107 = JLINKARM_DEBUG_INFO_NVIC_ADDR_INDEX)
T6D9C 000:287.316   Value=0xE000E000
T6D9C 000:287.348 - 0.064ms returns 0
T6D9C 000:287.370 JLINK_GetDebugInfo(0x10C = JLINKARM_DEBUG_INFO_DBG_ADDR_INDEX)
T6D9C 000:287.392   Value=0xE000EDF0
T6D9C 000:287.423 - 0.063ms returns 0
T6D9C 000:287.445 JLINK_GetDebugInfo(0x01 = Unknown)
T6D9C 000:287.467   Value=0x00000000
T6D9C 000:287.499 - 0.068ms returns 0
T6D9C 000:287.525 JLINK_ReadMemU32(0xE000ED00, 0x1 Items)
T6D9C 000:287.550   CPU_ReadMem(4 bytes @ 0xE000ED00)
T6D9C 000:288.173   Data:  00 C2 0C 41
T6D9C 000:288.257   Debug reg: CPUID
T6D9C 000:288.328 - 0.827ms returns 1 (0x1)
T6D9C 000:288.381 JLINK_GetDebugInfo(0x10F = JLINKARM_DEBUG_INFO_HAS_CORTEX_M_SECURITY_EXT_INDEX)
T6D9C 000:288.429   Value=0x00000000
T6D9C 000:288.507 - 0.150ms returns 0
T6D9C 000:288.557 JLINK_HasError()
T6D9C 000:288.608 JLINK_SetResetType(JLINKARM_CM3_RESET_TYPE_NORMAL)
T6D9C 000:288.656 - 0.072ms returns JLINKARM_CM3_RESET_TYPE_NORMAL
T6D9C 000:288.706 JLINK_Reset()
T6D9C 000:288.766   CPU is running
T6D9C 000:288.820   CPU_WriteMem(4 bytes @ 0xE000EDF0)
T6D9C 000:289.580   CPU is running
T6D9C 000:289.675   CPU_WriteMem(4 bytes @ 0xE000EDFC)
T6D9C 000:293.311   Reset: Halt core after reset via DEMCR.VC_CORERESET.
T6D9C 000:296.807   Reset: Reset device via AIRCR.SYSRESETREQ.
T6D9C 000:296.859   CPU is running
T6D9C 000:296.894   CPU_WriteMem(4 bytes @ 0xE000ED0C)
T6D9C 000:350.191   CPU_ReadMem(4 bytes @ 0xE000EDF0)
T6D9C 000:350.897   CPU_ReadMem(4 bytes @ 0xE000EDF0)
T6D9C 000:351.558   CPU is running
T6D9C 000:351.595   CPU_WriteMem(4 bytes @ 0xE000EDF0)
T6D9C 000:352.310   CPU is running
T6D9C 000:352.355   CPU_WriteMem(4 bytes @ 0xE000EDFC)
T6D9C 000:358.418   CPU_ReadMem(4 bytes @ 0xE000EDF0)
T6D9C 000:362.661   CPU_WriteMem(4 bytes @ 0xE0002000)
T6D9C 000:363.308   CPU_ReadMem(4 bytes @ 0xE000EDFC)
T6D9C 000:364.048   CPU_ReadMem(4 bytes @ 0xE0001000)
T6D9C 000:364.650   CPU_WriteMem(4 bytes @ 0xE0001000)
T6D9C 000:365.311 - 76.625ms
T6D9C 000:365.355 JLINK_Halt()
T6D9C 000:365.377 - 0.033ms returns 0x00
T6D9C 000:365.402 JLINK_ReadMemU32(0xE000EDF0, 0x1 Items)
T6D9C 000:365.430   CPU_ReadMem(4 bytes @ 0xE000EDF0)
T6D9C 000:366.034   Data:  03 00 03 00
T6D9C 000:366.075   Debug reg: DHCSR
T6D9C 000:366.107 - 0.715ms returns 1 (0x1)
T6D9C 000:366.136 JLINK_WriteU32_64(0xE000EDF0, 0xA05F0003)
T6D9C 000:366.162   Debug reg: DHCSR
T6D9C 000:366.388   CPU_WriteMem(4 bytes @ 0xE000EDF0)
T6D9C 000:367.059 - 0.943ms returns 0 (0x00000000)
T6D9C 000:367.097 JLINK_WriteU32_64(0xE000EDFC, 0x01000000)
T6D9C 000:367.121   Debug reg: DEMCR
T6D9C 000:367.158   CPU_WriteMem(4 bytes @ 0xE000EDFC)
T6D9C 000:367.810 - 0.732ms returns 0 (0x00000000)
T6D9C 000:389.372 JLINK_GetHWStatus(...)
T6D9C 000:389.772 - 0.416ms returns 0
T6D9C 000:404.399 JLINK_GetNumBPUnits(Type = 0xFFFFFF00)
T6D9C 000:404.455 - 0.067ms returns 0x04
T6D9C 000:404.479 JLINK_GetNumBPUnits(Type = 0xF0)
T6D9C 000:404.502 - 0.033ms returns 0x2000
T6D9C 000:404.524 JLINK_GetNumWPUnits()
T6D9C 000:404.548 - 0.034ms returns 2
T6D9C 000:420.125 JLINK_GetSpeed()
T6D9C 000:420.175 - 0.061ms returns 4000
T6D9C 000:428.694 JLINK_ReadMemU32(0xE000E004, 0x1 Items)
T6D9C 000:428.749   CPU_ReadMem(4 bytes @ 0xE000E004)
T6D9C 000:429.441   Data:  00 00 00 00
T6D9C 000:429.487 - 0.803ms returns 1 (0x1)
T6D9C 000:429.515 JLINK_Halt()
T6D9C 000:429.537 - 0.032ms returns 0x00
T6D9C 000:429.559 JLINK_IsHalted()
T6D9C 000:429.581 - 0.033ms returns TRUE
T6D9C 000:435.675 JLINK_WriteMem(0x20000000, 0x8D4 Bytes, ...)
T6D9C 000:435.703   Data:  00 BE 0A E0 0D 78 2D 06 68 40 08 24 40 00 00 D3 ...
T6D9C 000:435.961   CPU_WriteMem(2260 bytes @ 0x20000000)
T6D9C 000:462.407 - 26.763ms returns 0x8D4
T6D9C 000:462.493 JLINK_HasError()
T6D9C 000:462.519 JLINK_WriteReg(R0, 0x01000000)
T6D9C 000:462.549 - 0.040ms returns 0
T6D9C 000:462.571 JLINK_WriteReg(R1, 0x03D09000)
T6D9C 000:462.593 - 0.032ms returns 0
T6D9C 000:462.615 JLINK_WriteReg(R2, 0x00000001)
T6D9C 000:462.637 - 0.032ms returns 0
T6D9C 000:462.659 JLINK_WriteReg(R3, 0x00000000)
T6D9C 000:462.680 - 0.032ms returns 0
T6D9C 000:462.703 JLINK_WriteReg(R4, 0x00000000)
T6D9C 000:462.724 - 0.031ms returns 0
T6D9C 000:462.746 JLINK_WriteReg(R5, 0x00000000)
T6D9C 000:462.767 - 0.032ms returns 0
T6D9C 000:462.790 JLINK_WriteReg(R6, 0x00000000)
T6D9C 000:462.811 - 0.032ms returns 0
T6D9C 000:462.833 JLINK_WriteReg(R7, 0x00000000)
T6D9C 000:462.855 - 0.031ms returns 0
T6D9C 000:462.877 JLINK_WriteReg(R8, 0x00000000)
T6D9C 000:462.904 - 0.037ms returns 0
T6D9C 000:462.926 JLINK_WriteReg(R9, 0x200008CC)
T6D9C 000:462.947 - 0.031ms returns 0
T6D9C 000:462.969 JLINK_WriteReg(R10, 0x00000000)
T6D9C 000:462.991 - 0.032ms returns 0
T6D9C 000:463.013 JLINK_WriteReg(R11, 0x00000000)
T6D9C 000:463.034 - 0.032ms returns 0
T6D9C 000:463.056 JLINK_WriteReg(R12, 0x00000000)
T6D9C 000:463.078 - 0.032ms returns 0
T6D9C 000:463.100 JLINK_WriteReg(R13 (SP), 0x20001000)
T6D9C 000:463.122 - 0.033ms returns 0
T6D9C 000:463.144 JLINK_WriteReg(R14, 0x20000001)
T6D9C 000:463.166 - 0.032ms returns 0
T6D9C 000:463.188 JLINK_WriteReg(R15 (PC), 0x20000020)
T6D9C 000:463.211 - 0.033ms returns 0
T6D9C 000:463.233 JLINK_WriteReg(XPSR, 0x01000000)
T6D9C 000:463.255 - 0.032ms returns 0
T6D9C 000:463.277 JLINK_WriteReg(MSP, 0x20001000)
T6D9C 000:463.298 - 0.032ms returns 0
T6D9C 000:463.320 JLINK_WriteReg(PSP, 0x20001000)
T6D9C 000:463.342 - 0.032ms returns 0
T6D9C 000:463.364 JLINK_WriteReg(CFBP, 0x00000000)
T6D9C 000:463.386 - 0.032ms returns 0
T6D9C 000:463.408 JLINK_SetBPEx(Addr = 0x20000000, Type = 0xFFFFFFF2)
T6D9C 000:463.434   CPU_ReadMem(4 bytes @ 0x20000000)
T6D9C 000:464.180   CPU_WriteMem(4 bytes @ 0x20000000)
T6D9C 000:464.918   CPU_ReadMem(4 bytes @ 0x20000000)
T6D9C 000:465.556   CPU_WriteMem(4 bytes @ 0x20000000)
T6D9C 000:466.185   CPU_ReadMem(2 bytes @ 0x20000000)
T6D9C 000:466.811 - 3.445ms returns 0x00000001
T6D9C 000:466.885 JLINK_Go()
T6D9C 000:466.942   CPU_WriteMem(2 bytes @ 0x20000000)
T6D9C 000:467.688   CPU_ReadMem(4 bytes @ 0xE0001000)
T6D9C 000:468.406   CPU_WriteMem(4 bytes @ 0xE0001000)
T6D9C 000:468.450   CPU_WriteMem(4 bytes @ 0xE0002008)
T6D9C 000:468.482   CPU_WriteMem(4 bytes @ 0xE000200C)
T6D9C 000:468.514   CPU_WriteMem(4 bytes @ 0xE0002010)
T6D9C 000:468.546   CPU_WriteMem(4 bytes @ 0xE0002014)
T6D9C 000:470.616   CPU_WriteMem(4 bytes @ 0xE0001004)
T6D9C 000:474.655 - 7.790ms
T6D9C 000:474.690 JLINK_IsHalted()
T6D9C 000:475.271 - 0.598ms returns FALSE
T6D9C 000:475.302 JLINK_HasError()
T6D9C 000:507.511 JLINK_IsHalted()
T6D9C 000:508.166 - 0.676ms returns FALSE
T6D9C 000:508.202 JLINK_HasError()
T6D9C 000:509.506 JLINK_IsHalted()
T6D9C 000:510.166 - 0.679ms returns FALSE
T6D9C 000:510.199 JLINK_HasError()
T6D9C 000:512.514 JLINK_IsHalted()
T6D9C 000:513.138 - 0.644ms returns FALSE
T6D9C 000:513.178 JLINK_HasError()
T6D9C 000:516.021 JLINK_IsHalted()
T6D9C 000:516.636 - 0.627ms returns FALSE
T6D9C 000:516.662 JLINK_HasError()
T6D9C 000:519.039 JLINK_IsHalted()
T6D9C 000:519.767 - 0.748ms returns FALSE
T6D9C 000:519.804 JLINK_HasError()
T6D9C 000:521.024 JLINK_IsHalted()
T6D9C 000:521.635 - 0.631ms returns FALSE
T6D9C 000:521.670 JLINK_HasError()
T6D9C 000:526.039 JLINK_IsHalted()
T6D9C 000:526.652 - 0.632ms returns FALSE
T6D9C 000:526.686 JLINK_HasError()
T6D9C 000:528.808 JLINK_IsHalted()
T6D9C 000:529.564 - 0.787ms returns FALSE
T6D9C 000:529.624 JLINK_HasError()
T6D9C 000:532.812 JLINK_IsHalted()
T6D9C 000:533.554 - 0.754ms returns FALSE
T6D9C 000:533.579 JLINK_HasError()
T6D9C 000:535.315 JLINK_IsHalted()
T6D9C 000:536.001 - 0.706ms returns FALSE
T6D9C 000:536.036 JLINK_HasError()
T6D9C 000:537.319 JLINK_IsHalted()
T6D9C 000:537.998 - 0.698ms returns FALSE
T6D9C 000:538.031 JLINK_HasError()
T6D9C 000:539.316 JLINK_IsHalted()
T6D9C 000:539.996 - 0.691ms returns FALSE
T6D9C 000:540.021 JLINK_HasError()
T6D9C 000:541.324 JLINK_IsHalted()
T6D9C 000:542.017 - 0.720ms returns FALSE
T6D9C 000:542.072 JLINK_HasError()
T6D9C 000:543.826 JLINK_IsHalted()
T6D9C 000:544.560 - 0.752ms returns FALSE
T6D9C 000:544.593 JLINK_HasError()
T6D9C 000:547.871 JLINK_IsHalted()
T6D9C 000:548.636 - 0.785ms returns FALSE
T6D9C 000:548.672 JLINK_HasError()
T6D9C 000:550.285 JLINK_IsHalted()
T6D9C 000:551.004 - 0.735ms returns FALSE
T6D9C 000:551.034 JLINK_HasError()
T6D9C 000:552.271 JLINK_IsHalted()
T6D9C 000:552.876 - 0.619ms returns FALSE
T6D9C 000:552.904 JLINK_HasError()
T6D9C 000:554.774 JLINK_IsHalted()
T6D9C 000:555.453 - 0.698ms returns FALSE
T6D9C 000:555.487 JLINK_HasError()
T6D9C 000:556.881 JLINK_IsHalted()
T6D9C 000:557.561 - 0.697ms returns FALSE
T6D9C 000:557.592 JLINK_HasError()
T6D9C 000:559.232 JLINK_IsHalted()
T6D9C 000:559.891 - 0.679ms returns FALSE
T6D9C 000:559.926 JLINK_HasError()
T6D9C 000:563.682 JLINK_IsHalted()
T6D9C 000:564.260 - 0.598ms returns FALSE
T6D9C 000:564.295 JLINK_HasError()
T6D9C 000:566.160 JLINK_IsHalted()
T6D9C 000:566.757 - 0.608ms returns FALSE
T6D9C 000:566.782 JLINK_HasError()
T6D9C 000:568.166 JLINK_IsHalted()
T6D9C 000:568.761 - 0.614ms returns FALSE
T6D9C 000:568.794 JLINK_HasError()
T6D9C 000:570.165 JLINK_IsHalted()
T6D9C 000:570.755 - 0.607ms returns FALSE
T6D9C 000:570.786 JLINK_HasError()
T6D9C 000:572.169 JLINK_IsHalted()
T6D9C 000:572.765 - 0.615ms returns FALSE
T6D9C 000:572.799 JLINK_HasError()
T6D9C 000:574.166 JLINK_IsHalted()
T6D9C 000:574.759 - 0.609ms returns FALSE
T6D9C 000:574.789 JLINK_HasError()
T6D9C 000:576.683 JLINK_IsHalted()
T6D9C 000:577.386 - 0.722ms returns FALSE
T6D9C 000:577.419 JLINK_HasError()
T6D9C 000:578.684 JLINK_IsHalted()
T6D9C 000:579.398 - 0.730ms returns FALSE
T6D9C 000:579.428 JLINK_HasError()
T6D9C 000:580.692 JLINK_IsHalted()
T6D9C 000:581.391 - 0.719ms returns FALSE
T6D9C 000:581.425 JLINK_HasError()
T6D9C 000:582.696 JLINK_IsHalted()
T6D9C 000:583.389 - 0.712ms returns FALSE
T6D9C 000:583.423 JLINK_HasError()
T6D9C 000:585.194 JLINK_IsHalted()
T6D9C 000:585.881 - 0.706ms returns FALSE
T6D9C 000:585.966 JLINK_HasError()
T6D9C 000:587.189 JLINK_IsHalted()
T6D9C 000:587.757 - 0.580ms returns FALSE
T6D9C 000:587.781 JLINK_HasError()
T6D9C 000:589.195 JLINK_IsHalted()
T6D9C 000:589.877 - 0.699ms returns FALSE
T6D9C 000:589.912 JLINK_HasError()
T6D9C 000:593.716 JLINK_IsHalted()
T6D9C 000:594.383 - 0.687ms returns FALSE
T6D9C 000:594.418 JLINK_HasError()
T6D9C 000:595.697 JLINK_IsHalted()
T6D9C 000:596.377 - 0.691ms returns FALSE
T6D9C 000:596.402 JLINK_HasError()
T6D9C 000:599.705 JLINK_IsHalted()
T6D9C 000:600.402 - 0.710ms returns FALSE
T6D9C 000:600.429 JLINK_HasError()
T6D9C 000:601.710 JLINK_IsHalted()
T6D9C 000:602.385 - 0.695ms returns FALSE
T6D9C 000:602.420 JLINK_HasError()
T6D9C 000:603.708 JLINK_IsHalted()
T6D9C 000:607.268   CPU_ReadMem(2 bytes @ 0x20000000)
T6D9C 000:607.902 - 4.213ms returns TRUE
T6D9C 000:607.935 JLINK_ReadReg(R15 (PC))
T6D9C 000:607.960 - 0.036ms returns 0x20000000
T6D9C 000:607.984 JLINK_ClrBPEx(BPHandle = 0x00000001)
T6D9C 000:608.006 - 0.033ms returns 0x00
T6D9C 000:608.029 JLINK_ReadReg(R0)
T6D9C 000:608.051 - 0.032ms returns 0x00000000
T6D9C 000:608.595 JLINK_HasError()
T6D9C 000:608.626 JLINK_WriteReg(R0, 0x01000000)
T6D9C 000:608.650 - 0.034ms returns 0
T6D9C 000:608.673 JLINK_WriteReg(R1, 0x00001000)
T6D9C 000:608.695 - 0.032ms returns 0
T6D9C 000:608.718 JLINK_WriteReg(R2, 0x000000FF)
T6D9C 000:608.739 - 0.032ms returns 0
T6D9C 000:608.761 JLINK_WriteReg(R3, 0x00000000)
T6D9C 000:608.783 - 0.032ms returns 0
T6D9C 000:608.805 JLINK_WriteReg(R4, 0x00000000)
T6D9C 000:608.827 - 0.032ms returns 0
T6D9C 000:608.850 JLINK_WriteReg(R5, 0x00000000)
T6D9C 000:608.871 - 0.032ms returns 0
T6D9C 000:608.894 JLINK_WriteReg(R6, 0x00000000)
T6D9C 000:608.915 - 0.032ms returns 0
T6D9C 000:608.938 JLINK_WriteReg(R7, 0x00000000)
T6D9C 000:608.959 - 0.032ms returns 0
T6D9C 000:608.982 JLINK_WriteReg(R8, 0x00000000)
T6D9C 000:609.004 - 0.032ms returns 0
T6D9C 000:609.026 JLINK_WriteReg(R9, 0x200008CC)
T6D9C 000:609.048 - 0.033ms returns 0
T6D9C 000:609.071 JLINK_WriteReg(R10, 0x00000000)
T6D9C 000:609.093 - 0.032ms returns 0
T6D9C 000:609.115 JLINK_WriteReg(R11, 0x00000000)
T6D9C 000:609.137 - 0.032ms returns 0
T6D9C 000:609.159 JLINK_WriteReg(R12, 0x00000000)
T6D9C 000:609.181 - 0.032ms returns 0
T6D9C 000:609.203 JLINK_WriteReg(R13 (SP), 0x20001000)
T6D9C 000:609.225 - 0.033ms returns 0
T6D9C 000:609.248 JLINK_WriteReg(R14, 0x20000001)
T6D9C 000:609.270 - 0.032ms returns 0
T6D9C 000:609.292 JLINK_WriteReg(R15 (PC), 0x200000F8)
T6D9C 000:609.314 - 0.032ms returns 0
T6D9C 000:609.336 JLINK_WriteReg(XPSR, 0x01000000)
T6D9C 000:609.358 - 0.032ms returns 0
T6D9C 000:609.380 JLINK_WriteReg(MSP, 0x20001000)
T6D9C 000:609.402 - 0.032ms returns 0
T6D9C 000:609.424 JLINK_WriteReg(PSP, 0x20001000)
T6D9C 000:609.446 - 0.032ms returns 0
T6D9C 000:609.469 JLINK_WriteReg(CFBP, 0x00000000)
T6D9C 000:609.490 - 0.032ms returns 0
T6D9C 000:609.513 JLINK_SetBPEx(Addr = 0x20000000, Type = 0xFFFFFFF2)
T6D9C 000:609.535 - 0.033ms returns 0x00000002
T6D9C 000:609.558 JLINK_Go()
T6D9C 000:609.585   CPU_ReadMem(4 bytes @ 0xE0001000)
T6D9C 000:610.281   CPU_WriteMem(4 bytes @ 0xE0001000)
T6D9C 000:614.318 - 4.802ms
T6D9C 000:614.391 JLINK_IsHalted()
T6D9C 000:617.893   CPU_ReadMem(2 bytes @ 0x20000000)
T6D9C 000:618.559 - 4.182ms returns TRUE
T6D9C 000:618.592 JLINK_ReadReg(R15 (PC))
T6D9C 000:618.615 - 0.034ms returns 0x20000000
T6D9C 000:618.640 JLINK_ClrBPEx(BPHandle = 0x00000002)
T6D9C 000:618.663 - 0.033ms returns 0x00
T6D9C 000:618.687 JLINK_ReadReg(R0)
T6D9C 000:618.709 - 0.033ms returns 0x00000001
T6D9C 000:618.734 JLINK_HasError()
T6D9C 000:618.758 JLINK_WriteReg(R0, 0x01000000)
T6D9C 000:618.780 - 0.033ms returns 0
T6D9C 000:618.804 JLINK_WriteReg(R1, 0x00001000)
T6D9C 000:618.826 - 0.032ms returns 0
T6D9C 000:618.850 JLINK_WriteReg(R2, 0x000000FF)
T6D9C 000:618.872 - 0.032ms returns 0
T6D9C 000:618.897 JLINK_WriteReg(R3, 0x00000000)
T6D9C 000:618.918 - 0.032ms returns 0
T6D9C 000:618.943 JLINK_WriteReg(R4, 0x00000000)
T6D9C 000:618.968 - 0.037ms returns 0
T6D9C 000:618.994 JLINK_WriteReg(R5, 0x00000000)
T6D9C 000:619.016 - 0.032ms returns 0
T6D9C 000:619.041 JLINK_WriteReg(R6, 0x00000000)
T6D9C 000:619.063 - 0.033ms returns 0
T6D9C 000:619.087 JLINK_WriteReg(R7, 0x00000000)
T6D9C 000:619.109 - 0.032ms returns 0
T6D9C 000:619.133 JLINK_WriteReg(R8, 0x00000000)
T6D9C 000:619.155 - 0.032ms returns 0
T6D9C 000:619.179 JLINK_WriteReg(R9, 0x200008CC)
T6D9C 000:619.201 - 0.032ms returns 0
T6D9C 000:619.225 JLINK_WriteReg(R10, 0x00000000)
T6D9C 000:619.251 - 0.037ms returns 0
T6D9C 000:619.276 JLINK_WriteReg(R11, 0x00000000)
T6D9C 000:619.298 - 0.032ms returns 0
T6D9C 000:619.322 JLINK_WriteReg(R12, 0x00000000)
T6D9C 000:619.344 - 0.032ms returns 0
T6D9C 000:619.368 JLINK_WriteReg(R13 (SP), 0x20001000)
T6D9C 000:619.390 - 0.032ms returns 0
T6D9C 000:619.414 JLINK_WriteReg(R14, 0x20000001)
T6D9C 000:619.436 - 0.032ms returns 0
T6D9C 000:619.460 JLINK_WriteReg(R15 (PC), 0x20000090)
T6D9C 000:619.482 - 0.032ms returns 0
T6D9C 000:619.506 JLINK_WriteReg(XPSR, 0x01000000)
T6D9C 000:619.528 - 0.032ms returns 0
T6D9C 000:619.552 JLINK_WriteReg(MSP, 0x20001000)
T6D9C 000:619.574 - 0.032ms returns 0
T6D9C 000:619.598 JLINK_WriteReg(PSP, 0x20001000)
T6D9C 000:619.620 - 0.032ms returns 0
T6D9C 000:619.645 JLINK_WriteReg(CFBP, 0x00000000)
T6D9C 000:619.667 - 0.032ms returns 0
T6D9C 000:619.691 JLINK_SetBPEx(Addr = 0x20000000, Type = 0xFFFFFFF2)
T6D9C 000:619.713 - 0.033ms returns 0x00000003
T6D9C 000:619.737 JLINK_Go()
T6D9C 000:619.762   CPU_ReadMem(4 bytes @ 0xE0001000)
T6D9C 000:620.409   CPU_WriteMem(4 bytes @ 0xE0001000)
T6D9C 000:624.416 - 4.700ms
T6D9C 000:624.456 JLINK_IsHalted()
T6D9C 000:625.015 - 0.601ms returns FALSE
T6D9C 000:625.098 JLINK_HasError()
T6D9C 000:630.956 JLINK_IsHalted()
T6D9C 000:631.625 - 0.681ms returns FALSE
T6D9C 000:631.650 JLINK_HasError()
T6D9C 000:647.082 JLINK_IsHalted()
T6D9C 000:650.662   CPU_ReadMem(2 bytes @ 0x20000000)
T6D9C 000:651.286 - 4.248ms returns TRUE
T6D9C 000:651.415 JLINK_ReadReg(R15 (PC))
T6D9C 000:651.472 - 0.079ms returns 0x20000000
T6D9C 000:651.506 JLINK_ClrBPEx(BPHandle = 0x00000003)
T6D9C 000:651.529 - 0.033ms returns 0x00
T6D9C 000:651.551 JLINK_ReadReg(R0)
T6D9C 000:651.573 - 0.032ms returns 0x00000000
T6D9C 000:653.553 JLINK_HasError()
T6D9C 000:653.588 JLINK_WriteReg(R0, 0x01001000)
T6D9C 000:653.613 - 0.035ms returns 0
T6D9C 000:653.641 JLINK_WriteReg(R1, 0x00001000)
T6D9C 000:653.663 - 0.033ms returns 0
T6D9C 000:653.686 JLINK_WriteReg(R2, 0x000000FF)
T6D9C 000:653.708 - 0.032ms returns 0
T6D9C 000:653.730 JLINK_WriteReg(R3, 0x00000000)
T6D9C 000:653.752 - 0.032ms returns 0
T6D9C 000:653.774 JLINK_WriteReg(R4, 0x00000000)
T6D9C 000:653.796 - 0.032ms returns 0
T6D9C 000:653.818 JLINK_WriteReg(R5, 0x00000000)
T6D9C 000:653.840 - 0.032ms returns 0
T6D9C 000:653.863 JLINK_WriteReg(R6, 0x00000000)
T6D9C 000:653.884 - 0.032ms returns 0
T6D9C 000:653.906 JLINK_WriteReg(R7, 0x00000000)
T6D9C 000:653.928 - 0.032ms returns 0
T6D9C 000:653.950 JLINK_WriteReg(R8, 0x00000000)
T6D9C 000:653.972 - 0.033ms returns 0
T6D9C 000:653.995 JLINK_WriteReg(R9, 0x200008CC)
T6D9C 000:654.017 - 0.032ms returns 0
T6D9C 000:654.039 JLINK_WriteReg(R10, 0x00000000)
T6D9C 000:654.062 - 0.033ms returns 0
T6D9C 000:654.084 JLINK_WriteReg(R11, 0x00000000)
T6D9C 000:654.106 - 0.032ms returns 0
T6D9C 000:654.128 JLINK_WriteReg(R12, 0x00000000)
T6D9C 000:654.155 - 0.037ms returns 0
T6D9C 000:654.178 JLINK_WriteReg(R13 (SP), 0x20001000)
T6D9C 000:654.200 - 0.033ms returns 0
T6D9C 000:654.222 JLINK_WriteReg(R14, 0x20000001)
T6D9C 000:654.244 - 0.032ms returns 0
T6D9C 000:654.267 JLINK_WriteReg(R15 (PC), 0x200000F8)
T6D9C 000:654.288 - 0.032ms returns 0
T6D9C 000:654.311 JLINK_WriteReg(XPSR, 0x01000000)
T6D9C 000:654.333 - 0.032ms returns 0
T6D9C 000:654.355 JLINK_WriteReg(MSP, 0x20001000)
T6D9C 000:654.377 - 0.032ms returns 0
T6D9C 000:654.399 JLINK_WriteReg(PSP, 0x20001000)
T6D9C 000:654.421 - 0.032ms returns 0
T6D9C 000:654.447 JLINK_WriteReg(CFBP, 0x00000000)
T6D9C 000:654.476 - 0.040ms returns 0
T6D9C 000:654.498 JLINK_SetBPEx(Addr = 0x20000000, Type = 0xFFFFFFF2)
T6D9C 000:654.521 - 0.033ms returns 0x00000004
T6D9C 000:654.544 JLINK_Go()
T6D9C 000:654.571   CPU_ReadMem(4 bytes @ 0xE0001000)
T6D9C 000:655.292   CPU_WriteMem(4 bytes @ 0xE0001000)
T6D9C 000:659.561 - 5.037ms
T6D9C 000:659.596 JLINK_IsHalted()
T6D9C 000:663.200   CPU_ReadMem(2 bytes @ 0x20000000)
T6D9C 000:663.918 - 4.342ms returns TRUE
T6D9C 000:663.953 JLINK_ReadReg(R15 (PC))
T6D9C 000:663.978 - 0.035ms returns 0x20000000
T6D9C 000:664.000 JLINK_ClrBPEx(BPHandle = 0x00000004)
T6D9C 000:664.027 - 0.037ms returns 0x00
T6D9C 000:664.050 JLINK_ReadReg(R0)
T6D9C 000:664.072 - 0.032ms returns 0x00000001
T6D9C 000:664.095 JLINK_HasError()
T6D9C 000:664.117 JLINK_WriteReg(R0, 0x01001000)
T6D9C 000:664.140 - 0.032ms returns 0
T6D9C 000:664.162 JLINK_WriteReg(R1, 0x00001000)
T6D9C 000:664.183 - 0.032ms returns 0
T6D9C 000:664.205 JLINK_WriteReg(R2, 0x000000FF)
T6D9C 000:664.227 - 0.032ms returns 0
T6D9C 000:664.249 JLINK_WriteReg(R3, 0x00000000)
T6D9C 000:664.271 - 0.032ms returns 0
T6D9C 000:664.293 JLINK_WriteReg(R4, 0x00000000)
T6D9C 000:664.314 - 0.032ms returns 0
T6D9C 000:664.337 JLINK_WriteReg(R5, 0x00000000)
T6D9C 000:664.358 - 0.032ms returns 0
T6D9C 000:664.381 JLINK_WriteReg(R6, 0x00000000)
T6D9C 000:664.402 - 0.032ms returns 0
T6D9C 000:664.424 JLINK_WriteReg(R7, 0x00000000)
T6D9C 000:664.446 - 0.032ms returns 0
T6D9C 000:664.468 JLINK_WriteReg(R8, 0x00000000)
T6D9C 000:664.490 - 0.032ms returns 0
T6D9C 000:664.512 JLINK_WriteReg(R9, 0x200008CC)
T6D9C 000:664.534 - 0.032ms returns 0
T6D9C 000:664.556 JLINK_WriteReg(R10, 0x00000000)
T6D9C 000:664.577 - 0.032ms returns 0
T6D9C 000:664.599 JLINK_WriteReg(R11, 0x00000000)
T6D9C 000:664.621 - 0.032ms returns 0
T6D9C 000:664.643 JLINK_WriteReg(R12, 0x00000000)
T6D9C 000:664.665 - 0.032ms returns 0
T6D9C 000:664.687 JLINK_WriteReg(R13 (SP), 0x20001000)
T6D9C 000:664.709 - 0.033ms returns 0
T6D9C 000:664.731 JLINK_WriteReg(R14, 0x20000001)
T6D9C 000:664.753 - 0.032ms returns 0
T6D9C 000:664.775 JLINK_WriteReg(R15 (PC), 0x20000090)
T6D9C 000:664.797 - 0.032ms returns 0
T6D9C 000:664.819 JLINK_WriteReg(XPSR, 0x01000000)
T6D9C 000:664.841 - 0.032ms returns 0
T6D9C 000:664.863 JLINK_WriteReg(MSP, 0x20001000)
T6D9C 000:664.884 - 0.032ms returns 0
T6D9C 000:664.906 JLINK_WriteReg(PSP, 0x20001000)
T6D9C 000:664.928 - 0.032ms returns 0
T6D9C 000:664.950 JLINK_WriteReg(CFBP, 0x00000000)
T6D9C 000:664.971 - 0.032ms returns 0
T6D9C 000:664.994 JLINK_SetBPEx(Addr = 0x20000000, Type = 0xFFFFFFF2)
T6D9C 000:665.015 - 0.032ms returns 0x00000005
T6D9C 000:665.038 JLINK_Go()
T6D9C 000:665.063   CPU_ReadMem(4 bytes @ 0xE0001000)
T6D9C 000:665.781   CPU_WriteMem(4 bytes @ 0xE0001000)
T6D9C 000:669.812 - 4.797ms
T6D9C 000:669.849 JLINK_IsHalted()
T6D9C 000:670.557 - 0.727ms returns FALSE
T6D9C 000:670.591 JLINK_HasError()
T6D9C 000:707.394 JLINK_IsHalted()
T6D9C 000:710.921   CPU_ReadMem(2 bytes @ 0x20000000)
T6D9C 000:711.561 - 4.182ms returns TRUE
T6D9C 000:711.591 JLINK_ReadReg(R15 (PC))
T6D9C 000:711.615 - 0.035ms returns 0x20000000
T6D9C 000:711.638 JLINK_ClrBPEx(BPHandle = 0x00000005)
T6D9C 000:711.660 - 0.032ms returns 0x00
T6D9C 000:711.682 JLINK_ReadReg(R0)
T6D9C 000:711.704 - 0.032ms returns 0x00000000
T6D9C 000:712.265 JLINK_HasError()
T6D9C 000:712.298 JLINK_WriteReg(R0, 0x01002000)
T6D9C 000:712.322 - 0.034ms returns 0
T6D9C 000:712.345 JLINK_WriteReg(R1, 0x00001000)
T6D9C 000:712.367 - 0.032ms returns 0
T6D9C 000:712.389 JLINK_WriteReg(R2, 0x000000FF)
T6D9C 000:712.411 - 0.032ms returns 0
T6D9C 000:712.433 JLINK_WriteReg(R3, 0x00000000)
T6D9C 000:712.455 - 0.032ms returns 0
T6D9C 000:712.477 JLINK_WriteReg(R4, 0x00000000)
T6D9C 000:712.498 - 0.032ms returns 0
T6D9C 000:712.521 JLINK_WriteReg(R5, 0x00000000)
T6D9C 000:712.542 - 0.032ms returns 0
T6D9C 000:712.564 JLINK_WriteReg(R6, 0x00000000)
T6D9C 000:712.586 - 0.032ms returns 0
T6D9C 000:712.607 JLINK_WriteReg(R7, 0x00000000)
T6D9C 000:712.636 - 0.039ms returns 0
T6D9C 000:712.658 JLINK_WriteReg(R8, 0x00000000)
T6D9C 000:712.680 - 0.032ms returns 0
T6D9C 000:712.702 JLINK_WriteReg(R9, 0x200008CC)
T6D9C 000:712.723 - 0.031ms returns 0
T6D9C 000:712.745 JLINK_WriteReg(R10, 0x00000000)
T6D9C 000:712.767 - 0.032ms returns 0
T6D9C 000:712.789 JLINK_WriteReg(R11, 0x00000000)
T6D9C 000:712.810 - 0.031ms returns 0
T6D9C 000:712.832 JLINK_WriteReg(R12, 0x00000000)
T6D9C 000:712.854 - 0.032ms returns 0
T6D9C 000:712.876 JLINK_WriteReg(R13 (SP), 0x20001000)
T6D9C 000:712.898 - 0.032ms returns 0
T6D9C 000:712.920 JLINK_WriteReg(R14, 0x20000001)
T6D9C 000:712.941 - 0.032ms returns 0
T6D9C 000:712.963 JLINK_WriteReg(R15 (PC), 0x200000F8)
T6D9C 000:712.985 - 0.032ms returns 0
T6D9C 000:713.007 JLINK_WriteReg(XPSR, 0x01000000)
T6D9C 000:713.028 - 0.038ms returns 0
T6D9C 000:713.057 JLINK_WriteReg(MSP, 0x20001000)
T6D9C 000:713.078 - 0.032ms returns 0
T6D9C 000:713.100 JLINK_WriteReg(PSP, 0x20001000)
T6D9C 000:713.122 - 0.032ms returns 0
T6D9C 000:713.144 JLINK_WriteReg(CFBP, 0x00000000)
T6D9C 000:713.165 - 0.032ms returns 0
T6D9C 000:713.187 JLINK_SetBPEx(Addr = 0x20000000, Type = 0xFFFFFFF2)
T6D9C 000:713.210 - 0.033ms returns 0x00000006
T6D9C 000:713.232 JLINK_Go()
T6D9C 000:713.259   CPU_ReadMem(4 bytes @ 0xE0001000)
T6D9C 000:713.919   CPU_WriteMem(4 bytes @ 0xE0001000)
T6D9C 000:718.062 - 4.872ms
T6D9C 000:718.137 JLINK_IsHalted()
T6D9C 000:721.669   CPU_ReadMem(2 bytes @ 0x20000000)
T6D9C 000:722.281 - 4.156ms returns TRUE
T6D9C 000:722.306 JLINK_ReadReg(R15 (PC))
T6D9C 000:722.330 - 0.034ms returns 0x20000000
T6D9C 000:722.352 JLINK_ClrBPEx(BPHandle = 0x00000006)
T6D9C 000:722.374 - 0.033ms returns 0x00
T6D9C 000:722.397 JLINK_ReadReg(R0)
T6D9C 000:722.419 - 0.032ms returns 0x00000001
T6D9C 000:722.441 JLINK_HasError()
T6D9C 000:722.464 JLINK_WriteReg(R0, 0x01002000)
T6D9C 000:722.486 - 0.032ms returns 0
T6D9C 000:722.508 JLINK_WriteReg(R1, 0x00001000)
T6D9C 000:722.529 - 0.032ms returns 0
T6D9C 000:722.552 JLINK_WriteReg(R2, 0x000000FF)
T6D9C 000:722.573 - 0.032ms returns 0
T6D9C 000:722.595 JLINK_WriteReg(R3, 0x00000000)
T6D9C 000:722.616 - 0.032ms returns 0
T6D9C 000:722.639 JLINK_WriteReg(R4, 0x00000000)
T6D9C 000:722.660 - 0.032ms returns 0
T6D9C 000:722.682 JLINK_WriteReg(R5, 0x00000000)
T6D9C 000:722.703 - 0.032ms returns 0
T6D9C 000:722.726 JLINK_WriteReg(R6, 0x00000000)
T6D9C 000:722.747 - 0.032ms returns 0
T6D9C 000:722.769 JLINK_WriteReg(R7, 0x00000000)
T6D9C 000:722.791 - 0.032ms returns 0
T6D9C 000:722.813 JLINK_WriteReg(R8, 0x00000000)
T6D9C 000:722.835 - 0.032ms returns 0
T6D9C 000:722.857 JLINK_WriteReg(R9, 0x200008CC)
T6D9C 000:722.878 - 0.032ms returns 0
T6D9C 000:722.900 JLINK_WriteReg(R10, 0x00000000)
T6D9C 000:722.922 - 0.036ms returns 0
T6D9C 000:722.948 JLINK_WriteReg(R11, 0x00000000)
T6D9C 000:722.969 - 0.032ms returns 0
T6D9C 000:722.991 JLINK_WriteReg(R12, 0x00000000)
T6D9C 000:723.013 - 0.032ms returns 0
T6D9C 000:723.035 JLINK_WriteReg(R13 (SP), 0x20001000)
T6D9C 000:723.057 - 0.032ms returns 0
T6D9C 000:723.079 JLINK_WriteReg(R14, 0x20000001)
T6D9C 000:723.100 - 0.032ms returns 0
T6D9C 000:723.123 JLINK_WriteReg(R15 (PC), 0x20000090)
T6D9C 000:723.144 - 0.032ms returns 0
T6D9C 000:723.166 JLINK_WriteReg(XPSR, 0x01000000)
T6D9C 000:723.188 - 0.032ms returns 0
T6D9C 000:723.210 JLINK_WriteReg(MSP, 0x20001000)
T6D9C 000:723.231 - 0.032ms returns 0
T6D9C 000:723.253 JLINK_WriteReg(PSP, 0x20001000)
T6D9C 000:723.275 - 0.032ms returns 0
T6D9C 000:723.297 JLINK_WriteReg(CFBP, 0x00000000)
T6D9C 000:723.319 - 0.032ms returns 0
T6D9C 000:723.341 JLINK_SetBPEx(Addr = 0x20000000, Type = 0xFFFFFFF2)
T6D9C 000:723.363 - 0.032ms returns 0x00000007
T6D9C 000:723.385 JLINK_Go()
T6D9C 000:723.409   CPU_ReadMem(4 bytes @ 0xE0001000)
T6D9C 000:724.027   CPU_WriteMem(4 bytes @ 0xE0001000)
T6D9C 000:728.046 - 4.680ms
T6D9C 000:728.085 JLINK_IsHalted()
T6D9C 000:728.776 - 0.711ms returns FALSE
T6D9C 000:728.814 JLINK_HasError()
T6D9C 000:734.947 JLINK_IsHalted()
T6D9C 000:735.657 - 0.729ms returns FALSE
T6D9C 000:735.691 JLINK_HasError()
T6D9C 000:739.951 JLINK_IsHalted()
T6D9C 000:740.571 - 0.635ms returns FALSE
T6D9C 000:740.599 JLINK_HasError()
T6D9C 000:741.943 JLINK_IsHalted()
T6D9C 000:742.637 - 0.706ms returns FALSE
T6D9C 000:742.663 JLINK_HasError()
T6D9C 000:743.946 JLINK_IsHalted()
T6D9C 000:744.559 - 0.633ms returns FALSE
T6D9C 000:744.594 JLINK_HasError()
T6D9C 000:749.457 JLINK_IsHalted()
T6D9C 000:753.064   CPU_ReadMem(2 bytes @ 0x20000000)
T6D9C 000:753.870 - 4.432ms returns TRUE
T6D9C 000:753.904 JLINK_ReadReg(R15 (PC))
T6D9C 000:753.929 - 0.036ms returns 0x20000000
T6D9C 000:753.952 JLINK_ClrBPEx(BPHandle = 0x00000007)
T6D9C 000:753.975 - 0.032ms returns 0x00
T6D9C 000:754.000 JLINK_ReadReg(R0)
T6D9C 000:754.022 - 0.032ms returns 0x00000000
T6D9C 000:754.518 JLINK_HasError()
T6D9C 000:754.552 JLINK_WriteReg(R0, 0x01003000)
T6D9C 000:754.576 - 0.035ms returns 0
T6D9C 000:754.598 JLINK_WriteReg(R1, 0x00001000)
T6D9C 000:754.620 - 0.032ms returns 0
T6D9C 000:754.642 JLINK_WriteReg(R2, 0x000000FF)
T6D9C 000:754.664 - 0.032ms returns 0
T6D9C 000:754.686 JLINK_WriteReg(R3, 0x00000000)
T6D9C 000:754.708 - 0.032ms returns 0
T6D9C 000:754.730 JLINK_WriteReg(R4, 0x00000000)
T6D9C 000:754.751 - 0.031ms returns 0
T6D9C 000:754.773 JLINK_WriteReg(R5, 0x00000000)
T6D9C 000:754.794 - 0.032ms returns 0
T6D9C 000:754.816 JLINK_WriteReg(R6, 0x00000000)
T6D9C 000:754.838 - 0.031ms returns 0
T6D9C 000:754.860 JLINK_WriteReg(R7, 0x00000000)
T6D9C 000:754.881 - 0.031ms returns 0
T6D9C 000:754.903 JLINK_WriteReg(R8, 0x00000000)
T6D9C 000:754.925 - 0.032ms returns 0
T6D9C 000:754.947 JLINK_WriteReg(R9, 0x200008CC)
T6D9C 000:754.968 - 0.032ms returns 0
T6D9C 000:754.990 JLINK_WriteReg(R10, 0x00000000)
T6D9C 000:755.012 - 0.032ms returns 0
T6D9C 000:755.034 JLINK_WriteReg(R11, 0x00000000)
T6D9C 000:755.055 - 0.031ms returns 0
T6D9C 000:755.077 JLINK_WriteReg(R12, 0x00000000)
T6D9C 000:755.098 - 0.032ms returns 0
T6D9C 000:755.120 JLINK_WriteReg(R13 (SP), 0x20001000)
T6D9C 000:755.142 - 0.032ms returns 0
T6D9C 000:755.164 JLINK_WriteReg(R14, 0x20000001)
T6D9C 000:755.185 - 0.031ms returns 0
T6D9C 000:755.207 JLINK_WriteReg(R15 (PC), 0x200000F8)
T6D9C 000:755.229 - 0.032ms returns 0
T6D9C 000:755.251 JLINK_WriteReg(XPSR, 0x01000000)
T6D9C 000:755.272 - 0.032ms returns 0
T6D9C 000:755.294 JLINK_WriteReg(MSP, 0x20001000)
T6D9C 000:755.315 - 0.031ms returns 0
T6D9C 000:755.337 JLINK_WriteReg(PSP, 0x20001000)
T6D9C 000:755.359 - 0.031ms returns 0
T6D9C 000:755.381 JLINK_WriteReg(CFBP, 0x00000000)
T6D9C 000:755.402 - 0.031ms returns 0
T6D9C 000:755.424 JLINK_SetBPEx(Addr = 0x20000000, Type = 0xFFFFFFF2)
T6D9C 000:755.446 - 0.033ms returns 0x00000008
T6D9C 000:755.469 JLINK_Go()
T6D9C 000:755.495   CPU_ReadMem(4 bytes @ 0xE0001000)
T6D9C 000:756.145   CPU_WriteMem(4 bytes @ 0xE0001000)
T6D9C 000:760.178 - 4.752ms
T6D9C 000:760.252 JLINK_IsHalted()
T6D9C 000:763.771   CPU_ReadMem(2 bytes @ 0x20000000)
T6D9C 000:764.413 - 4.177ms returns TRUE
T6D9C 000:764.443 JLINK_ReadReg(R15 (PC))
T6D9C 000:764.467 - 0.034ms returns 0x20000000
T6D9C 000:764.490 JLINK_ClrBPEx(BPHandle = 0x00000008)
T6D9C 000:764.512 - 0.032ms returns 0x00
T6D9C 000:764.534 JLINK_ReadReg(R0)
T6D9C 000:764.556 - 0.032ms returns 0x00000001
T6D9C 000:764.578 JLINK_HasError()
T6D9C 000:764.601 JLINK_WriteReg(R0, 0x01003000)
T6D9C 000:764.623 - 0.032ms returns 0
T6D9C 000:764.645 JLINK_WriteReg(R1, 0x00001000)
T6D9C 000:764.667 - 0.032ms returns 0
T6D9C 000:764.689 JLINK_WriteReg(R2, 0x000000FF)
T6D9C 000:764.710 - 0.032ms returns 0
T6D9C 000:764.733 JLINK_WriteReg(R3, 0x00000000)
T6D9C 000:764.754 - 0.032ms returns 0
T6D9C 000:764.776 JLINK_WriteReg(R4, 0x00000000)
T6D9C 000:764.798 - 0.032ms returns 0
T6D9C 000:764.820 JLINK_WriteReg(R5, 0x00000000)
T6D9C 000:764.841 - 0.032ms returns 0
T6D9C 000:764.863 JLINK_WriteReg(R6, 0x00000000)
T6D9C 000:764.885 - 0.032ms returns 0
T6D9C 000:764.920 JLINK_WriteReg(R7, 0x00000000)
T6D9C 000:764.995 - 0.085ms returns 0
T6D9C 000:765.017 JLINK_WriteReg(R8, 0x00000000)
T6D9C 000:765.039 - 0.032ms returns 0
T6D9C 000:765.061 JLINK_WriteReg(R9, 0x200008CC)
T6D9C 000:765.083 - 0.032ms returns 0
T6D9C 000:765.105 JLINK_WriteReg(R10, 0x00000000)
T6D9C 000:765.126 - 0.032ms returns 0
T6D9C 000:765.148 JLINK_WriteReg(R11, 0x00000000)
T6D9C 000:765.170 - 0.032ms returns 0
T6D9C 000:765.192 JLINK_WriteReg(R12, 0x00000000)
T6D9C 000:765.214 - 0.032ms returns 0
T6D9C 000:765.236 JLINK_WriteReg(R13 (SP), 0x20001000)
T6D9C 000:765.258 - 0.032ms returns 0
T6D9C 000:765.280 JLINK_WriteReg(R14, 0x20000001)
T6D9C 000:765.301 - 0.032ms returns 0
T6D9C 000:765.323 JLINK_WriteReg(R15 (PC), 0x20000090)
T6D9C 000:765.345 - 0.032ms returns 0
T6D9C 000:765.367 JLINK_WriteReg(XPSR, 0x01000000)
T6D9C 000:765.389 - 0.032ms returns 0
T6D9C 000:765.411 JLINK_WriteReg(MSP, 0x20001000)
T6D9C 000:765.432 - 0.032ms returns 0
T6D9C 000:765.458 JLINK_WriteReg(PSP, 0x20001000)
T6D9C 000:765.480 - 0.033ms returns 0
T6D9C 000:765.504 JLINK_WriteReg(CFBP, 0x00000000)
T6D9C 000:765.525 - 0.032ms returns 0
T6D9C 000:765.547 JLINK_SetBPEx(Addr = 0x20000000, Type = 0xFFFFFFF2)
T6D9C 000:765.569 - 0.032ms returns 0x00000009
T6D9C 000:765.592 JLINK_Go()
T6D9C 000:765.616   CPU_ReadMem(4 bytes @ 0xE0001000)
T6D9C 000:766.294   CPU_WriteMem(4 bytes @ 0xE0001000)
T6D9C 000:770.279 - 4.706ms
T6D9C 000:770.311 JLINK_IsHalted()
T6D9C 000:770.877 - 0.581ms returns FALSE
T6D9C 000:770.906 JLINK_HasError()
T6D9C 000:774.000 JLINK_IsHalted()
T6D9C 000:774.648 - 0.668ms returns FALSE
T6D9C 000:774.683 JLINK_HasError()
T6D9C 000:776.003 JLINK_IsHalted()
T6D9C 000:776.648 - 0.689ms returns FALSE
T6D9C 000:776.725 JLINK_HasError()
T6D9C 000:782.007 JLINK_IsHalted()
T6D9C 000:782.642 - 0.652ms returns FALSE
T6D9C 000:782.673 JLINK_HasError()
T6D9C 000:784.004 JLINK_IsHalted()
T6D9C 000:784.700 - 0.713ms returns FALSE
T6D9C 000:784.732 JLINK_HasError()
T6D9C 000:787.522 JLINK_IsHalted()
T6D9C 000:791.046   CPU_ReadMem(2 bytes @ 0x20000000)
T6D9C 000:791.648 - 4.141ms returns TRUE
T6D9C 000:791.677 JLINK_ReadReg(R15 (PC))
T6D9C 000:791.702 - 0.036ms returns 0x20000000
T6D9C 000:791.725 JLINK_ClrBPEx(BPHandle = 0x00000009)
T6D9C 000:791.748 - 0.033ms returns 0x00
T6D9C 000:791.770 JLINK_ReadReg(R0)
T6D9C 000:791.792 - 0.032ms returns 0x00000000
T6D9C 000:793.020 JLINK_HasError()
T6D9C 000:793.054 JLINK_WriteReg(R0, 0x01004000)
T6D9C 000:793.079 - 0.035ms returns 0
T6D9C 000:793.107 JLINK_WriteReg(R1, 0x00001000)
T6D9C 000:793.130 - 0.033ms returns 0
T6D9C 000:793.153 JLINK_WriteReg(R2, 0x000000FF)
T6D9C 000:793.174 - 0.032ms returns 0
T6D9C 000:793.197 JLINK_WriteReg(R3, 0x00000000)
T6D9C 000:793.218 - 0.032ms returns 0
T6D9C 000:793.241 JLINK_WriteReg(R4, 0x00000000)
T6D9C 000:793.263 - 0.032ms returns 0
T6D9C 000:793.289 JLINK_WriteReg(R5, 0x00000000)
T6D9C 000:793.311 - 0.033ms returns 0
T6D9C 000:793.334 JLINK_WriteReg(R6, 0x00000000)
T6D9C 000:793.356 - 0.032ms returns 0
T6D9C 000:793.378 JLINK_WriteReg(R7, 0x00000000)
T6D9C 000:793.400 - 0.033ms returns 0
T6D9C 000:793.423 JLINK_WriteReg(R8, 0x00000000)
T6D9C 000:793.445 - 0.032ms returns 0
T6D9C 000:793.468 JLINK_WriteReg(R9, 0x200008CC)
T6D9C 000:793.490 - 0.034ms returns 0
T6D9C 000:793.515 JLINK_WriteReg(R10, 0x00000000)
T6D9C 000:793.537 - 0.034ms returns 0
T6D9C 000:793.561 JLINK_WriteReg(R11, 0x00000000)
T6D9C 000:793.584 - 0.035ms returns 0
T6D9C 000:793.609 JLINK_WriteReg(R12, 0x00000000)
T6D9C 000:793.634 - 0.036ms returns 0
T6D9C 000:793.657 JLINK_WriteReg(R13 (SP), 0x20001000)
T6D9C 000:793.681 - 0.036ms returns 0
T6D9C 000:793.705 JLINK_WriteReg(R14, 0x20000001)
T6D9C 000:793.730 - 0.035ms returns 0
T6D9C 000:793.752 JLINK_WriteReg(R15 (PC), 0x200000F8)
T6D9C 000:793.774 - 0.032ms returns 0
T6D9C 000:793.796 JLINK_WriteReg(XPSR, 0x01000000)
T6D9C 000:793.818 - 0.032ms returns 0
T6D9C 000:793.840 JLINK_WriteReg(MSP, 0x20001000)
T6D9C 000:793.862 - 0.032ms returns 0
T6D9C 000:793.884 JLINK_WriteReg(PSP, 0x20001000)
T6D9C 000:793.911 - 0.038ms returns 0
T6D9C 000:793.936 JLINK_WriteReg(CFBP, 0x00000000)
T6D9C 000:793.961 - 0.036ms returns 0
T6D9C 000:793.986 JLINK_SetBPEx(Addr = 0x20000000, Type = 0xFFFFFFF2)
T6D9C 000:794.013 - 0.039ms returns 0x0000000A
T6D9C 000:794.038 JLINK_Go()
T6D9C 000:794.066   CPU_ReadMem(4 bytes @ 0xE0001000)
T6D9C 000:794.647   CPU_WriteMem(4 bytes @ 0xE0001000)
T6D9C 000:798.676 - 4.678ms
T6D9C 000:798.748 JLINK_IsHalted()
T6D9C 000:802.283   CPU_ReadMem(2 bytes @ 0x20000000)
T6D9C 000:802.915 - 4.180ms returns TRUE
T6D9C 000:802.941 JLINK_ReadReg(R15 (PC))
T6D9C 000:802.964 - 0.034ms returns 0x20000000
T6D9C 000:802.987 JLINK_ClrBPEx(BPHandle = 0x0000000A)
T6D9C 000:803.009 - 0.032ms returns 0x00
T6D9C 000:803.032 JLINK_ReadReg(R0)
T6D9C 000:803.054 - 0.032ms returns 0x00000001
T6D9C 000:803.077 JLINK_HasError()
T6D9C 000:803.099 JLINK_WriteReg(R0, 0x01004000)
T6D9C 000:803.121 - 0.032ms returns 0
T6D9C 000:803.144 JLINK_WriteReg(R1, 0x00001000)
T6D9C 000:803.166 - 0.032ms returns 0
T6D9C 000:803.188 JLINK_WriteReg(R2, 0x000000FF)
T6D9C 000:803.210 - 0.032ms returns 0
T6D9C 000:803.232 JLINK_WriteReg(R3, 0x00000000)
T6D9C 000:803.254 - 0.032ms returns 0
T6D9C 000:803.276 JLINK_WriteReg(R4, 0x00000000)
T6D9C 000:803.298 - 0.032ms returns 0
T6D9C 000:803.320 JLINK_WriteReg(R5, 0x00000000)
T6D9C 000:803.342 - 0.036ms returns 0
T6D9C 000:803.368 JLINK_WriteReg(R6, 0x00000000)
T6D9C 000:803.390 - 0.032ms returns 0
T6D9C 000:803.413 JLINK_WriteReg(R7, 0x00000000)
T6D9C 000:803.435 - 0.032ms returns 0
T6D9C 000:803.457 JLINK_WriteReg(R8, 0x00000000)
T6D9C 000:803.479 - 0.032ms returns 0
T6D9C 000:803.501 JLINK_WriteReg(R9, 0x200008CC)
T6D9C 000:803.523 - 0.032ms returns 0
T6D9C 000:803.546 JLINK_WriteReg(R10, 0x00000000)
T6D9C 000:803.567 - 0.032ms returns 0
T6D9C 000:803.589 JLINK_WriteReg(R11, 0x00000000)
T6D9C 000:803.611 - 0.032ms returns 0
T6D9C 000:803.634 JLINK_WriteReg(R12, 0x00000000)
T6D9C 000:803.655 - 0.032ms returns 0
T6D9C 000:803.678 JLINK_WriteReg(R13 (SP), 0x20001000)
T6D9C 000:803.699 - 0.032ms returns 0
T6D9C 000:803.722 JLINK_WriteReg(R14, 0x20000001)
T6D9C 000:803.743 - 0.032ms returns 0
T6D9C 000:803.766 JLINK_WriteReg(R15 (PC), 0x20000090)
T6D9C 000:803.787 - 0.032ms returns 0
T6D9C 000:803.810 JLINK_WriteReg(XPSR, 0x01000000)
T6D9C 000:803.832 - 0.032ms returns 0
T6D9C 000:803.854 JLINK_WriteReg(MSP, 0x20001000)
T6D9C 000:803.876 - 0.032ms returns 0
T6D9C 000:803.898 JLINK_WriteReg(PSP, 0x20001000)
T6D9C 000:803.920 - 0.032ms returns 0
T6D9C 000:803.943 JLINK_WriteReg(CFBP, 0x00000000)
T6D9C 000:803.964 - 0.032ms returns 0
T6D9C 000:803.987 JLINK_SetBPEx(Addr = 0x20000000, Type = 0xFFFFFFF2)
T6D9C 000:804.009 - 0.032ms returns 0x0000000B
T6D9C 000:804.031 JLINK_Go()
T6D9C 000:804.056   CPU_ReadMem(4 bytes @ 0xE0001000)
T6D9C 000:804.692   CPU_WriteMem(4 bytes @ 0xE0001000)
T6D9C 000:808.778 - 4.767ms
T6D9C 000:808.817 JLINK_IsHalted()
T6D9C 000:809.387 - 0.583ms returns FALSE
T6D9C 000:809.417 JLINK_HasError()
T6D9C 000:811.555 JLINK_IsHalted()
T6D9C 000:812.135 - 0.601ms returns FALSE
T6D9C 000:812.170 JLINK_HasError()
T6D9C 000:814.055 JLINK_IsHalted()
T6D9C 000:814.652 - 0.612ms returns FALSE
T6D9C 000:814.681 JLINK_HasError()
T6D9C 000:816.055 JLINK_IsHalted()
T6D9C 000:816.640 - 0.604ms returns FALSE
T6D9C 000:816.673 JLINK_HasError()
T6D9C 000:818.065 JLINK_IsHalted()
T6D9C 000:818.638 - 0.590ms returns FALSE
T6D9C 000:818.668 JLINK_HasError()
T6D9C 000:820.058 JLINK_IsHalted()
T6D9C 000:820.654 - 0.610ms returns FALSE
T6D9C 000:820.682 JLINK_HasError()
T6D9C 000:822.082 JLINK_IsHalted()
T6D9C 000:822.765 - 0.703ms returns FALSE
T6D9C 000:822.799 JLINK_HasError()
T6D9C 000:824.061 JLINK_IsHalted()
T6D9C 000:824.643 - 0.624ms returns FALSE
T6D9C 000:824.716 JLINK_HasError()
T6D9C 000:828.073 JLINK_IsHalted()
T6D9C 000:831.671   CPU_ReadMem(2 bytes @ 0x20000000)
T6D9C 000:832.284 - 4.231ms returns TRUE
T6D9C 000:832.318 JLINK_ReadReg(R15 (PC))
T6D9C 000:832.343 - 0.038ms returns 0x20000000
T6D9C 000:832.370 JLINK_ClrBPEx(BPHandle = 0x0000000B)
T6D9C 000:832.392 - 0.032ms returns 0x00
T6D9C 000:832.415 JLINK_ReadReg(R0)
T6D9C 000:832.437 - 0.032ms returns 0x00000000
T6D9C 000:832.971 JLINK_HasError()
T6D9C 000:833.004 JLINK_WriteReg(R0, 0x01005000)
T6D9C 000:833.033 - 0.039ms returns 0
T6D9C 000:833.056 JLINK_WriteReg(R1, 0x00001000)
T6D9C 000:833.078 - 0.033ms returns 0
T6D9C 000:833.101 JLINK_WriteReg(R2, 0x000000FF)
T6D9C 000:833.122 - 0.032ms returns 0
T6D9C 000:833.145 JLINK_WriteReg(R3, 0x00000000)
T6D9C 000:833.166 - 0.032ms returns 0
T6D9C 000:833.188 JLINK_WriteReg(R4, 0x00000000)
T6D9C 000:833.210 - 0.032ms returns 0
T6D9C 000:833.232 JLINK_WriteReg(R5, 0x00000000)
T6D9C 000:833.254 - 0.032ms returns 0
T6D9C 000:833.276 JLINK_WriteReg(R6, 0x00000000)
T6D9C 000:833.298 - 0.032ms returns 0
T6D9C 000:833.320 JLINK_WriteReg(R7, 0x00000000)
T6D9C 000:833.341 - 0.032ms returns 0
T6D9C 000:833.363 JLINK_WriteReg(R8, 0x00000000)
T6D9C 000:833.385 - 0.032ms returns 0
T6D9C 000:833.407 JLINK_WriteReg(R9, 0x200008CC)
T6D9C 000:833.429 - 0.032ms returns 0
T6D9C 000:833.451 JLINK_WriteReg(R10, 0x00000000)
T6D9C 000:833.472 - 0.032ms returns 0
T6D9C 000:833.495 JLINK_WriteReg(R11, 0x00000000)
T6D9C 000:833.516 - 0.032ms returns 0
T6D9C 000:833.538 JLINK_WriteReg(R12, 0x00000000)
T6D9C 000:833.560 - 0.032ms returns 0
T6D9C 000:833.582 JLINK_WriteReg(R13 (SP), 0x20001000)
T6D9C 000:833.604 - 0.032ms returns 0
T6D9C 000:833.626 JLINK_WriteReg(R14, 0x20000001)
T6D9C 000:833.648 - 0.032ms returns 0
T6D9C 000:833.670 JLINK_WriteReg(R15 (PC), 0x200000F8)
T6D9C 000:833.692 - 0.032ms returns 0
T6D9C 000:833.714 JLINK_WriteReg(XPSR, 0x01000000)
T6D9C 000:833.736 - 0.032ms returns 0
T6D9C 000:833.758 JLINK_WriteReg(MSP, 0x20001000)
T6D9C 000:833.780 - 0.032ms returns 0
T6D9C 000:833.802 JLINK_WriteReg(PSP, 0x20001000)
T6D9C 000:833.823 - 0.032ms returns 0
T6D9C 000:833.845 JLINK_WriteReg(CFBP, 0x00000000)
T6D9C 000:833.867 - 0.032ms returns 0
T6D9C 000:833.889 JLINK_SetBPEx(Addr = 0x20000000, Type = 0xFFFFFFF2)
T6D9C 000:833.911 - 0.033ms returns 0x0000000C
T6D9C 000:833.934 JLINK_Go()
T6D9C 000:833.960   CPU_ReadMem(4 bytes @ 0xE0001000)
T6D9C 000:834.672   CPU_WriteMem(4 bytes @ 0xE0001000)
T6D9C 000:838.685 - 4.771ms
T6D9C 000:838.725 JLINK_IsHalted()
T6D9C 000:842.301   CPU_ReadMem(2 bytes @ 0x20000000)
T6D9C 000:843.031 - 4.325ms returns TRUE
T6D9C 000:843.069 JLINK_ReadReg(R15 (PC))
T6D9C 000:843.093 - 0.034ms returns 0x20000000
T6D9C 000:843.117 JLINK_ClrBPEx(BPHandle = 0x0000000C)
T6D9C 000:843.139 - 0.032ms returns 0x00
T6D9C 000:843.164 JLINK_ReadReg(R0)
T6D9C 000:843.185 - 0.032ms returns 0x00000001
T6D9C 000:843.209 JLINK_HasError()
T6D9C 000:843.234 JLINK_WriteReg(R0, 0x01005000)
T6D9C 000:843.256 - 0.032ms returns 0
T6D9C 000:843.281 JLINK_WriteReg(R1, 0x00001000)
T6D9C 000:843.302 - 0.032ms returns 0
T6D9C 000:843.326 JLINK_WriteReg(R2, 0x000000FF)
T6D9C 000:843.348 - 0.032ms returns 0
T6D9C 000:843.372 JLINK_WriteReg(R3, 0x00000000)
T6D9C 000:843.394 - 0.032ms returns 0
T6D9C 000:843.418 JLINK_WriteReg(R4, 0x00000000)
T6D9C 000:843.444 - 0.037ms returns 0
T6D9C 000:843.469 JLINK_WriteReg(R5, 0x00000000)
T6D9C 000:843.490 - 0.032ms returns 0
T6D9C 000:843.514 JLINK_WriteReg(R6, 0x00000000)
T6D9C 000:843.535 - 0.032ms returns 0
T6D9C 000:843.559 JLINK_WriteReg(R7, 0x00000000)
T6D9C 000:843.581 - 0.032ms returns 0
T6D9C 000:843.605 JLINK_WriteReg(R8, 0x00000000)
T6D9C 000:843.630 - 0.035ms returns 0
T6D9C 000:843.655 JLINK_WriteReg(R9, 0x200008CC)
T6D9C 000:843.677 - 0.033ms returns 0
T6D9C 000:843.701 JLINK_WriteReg(R10, 0x00000000)
T6D9C 000:843.723 - 0.033ms returns 0
T6D9C 000:843.748 JLINK_WriteReg(R11, 0x00000000)
T6D9C 000:843.769 - 0.032ms returns 0
T6D9C 000:843.793 JLINK_WriteReg(R12, 0x00000000)
T6D9C 000:843.815 - 0.032ms returns 0
T6D9C 000:843.839 JLINK_WriteReg(R13 (SP), 0x20001000)
T6D9C 000:843.860 - 0.032ms returns 0
T6D9C 000:843.884 JLINK_WriteReg(R14, 0x20000001)
T6D9C 000:843.909 - 0.036ms returns 0
T6D9C 000:843.934 JLINK_WriteReg(R15 (PC), 0x20000090)
T6D9C 000:843.956 - 0.032ms returns 0
T6D9C 000:843.980 JLINK_WriteReg(XPSR, 0x01000000)
T6D9C 000:844.002 - 0.032ms returns 0
T6D9C 000:844.026 JLINK_WriteReg(MSP, 0x20001000)
T6D9C 000:844.047 - 0.032ms returns 0
T6D9C 000:844.071 JLINK_WriteReg(PSP, 0x20001000)
T6D9C 000:844.092 - 0.032ms returns 0
T6D9C 000:844.116 JLINK_WriteReg(CFBP, 0x00000000)
T6D9C 000:844.138 - 0.032ms returns 0
T6D9C 000:844.162 JLINK_SetBPEx(Addr = 0x20000000, Type = 0xFFFFFFF2)
T6D9C 000:844.184 - 0.032ms returns 0x0000000D
T6D9C 000:844.208 JLINK_Go()
T6D9C 000:844.232   CPU_ReadMem(4 bytes @ 0xE0001000)
T6D9C 000:844.944   CPU_WriteMem(4 bytes @ 0xE0001000)
T6D9C 000:849.049 - 4.864ms
T6D9C 000:849.089 JLINK_IsHalted()
T6D9C 000:849.642 - 0.567ms returns FALSE
T6D9C 000:849.673 JLINK_HasError()
T6D9C 000:933.758 JLINK_IsHalted()
T6D9C 000:937.295   CPU_ReadMem(2 bytes @ 0x20000000)
T6D9C 000:937.923 - 4.180ms returns TRUE
T6D9C 000:937.952 JLINK_ReadReg(R15 (PC))
T6D9C 000:937.978 - 0.038ms returns 0x20000000
T6D9C 000:938.002 JLINK_ClrBPEx(BPHandle = 0x0000000D)
T6D9C 000:938.025 - 0.033ms returns 0x00
T6D9C 000:938.050 JLINK_ReadReg(R0)
T6D9C 000:938.104 - 0.078ms returns 0x00000000
T6D9C 000:938.978 JLINK_HasError()
T6D9C 000:939.049 JLINK_WriteReg(R0, 0x01006000)
T6D9C 000:939.079 - 0.041ms returns 0
T6D9C 000:939.102 JLINK_WriteReg(R1, 0x00001000)
T6D9C 000:939.124 - 0.033ms returns 0
T6D9C 000:939.147 JLINK_WriteReg(R2, 0x000000FF)
T6D9C 000:939.168 - 0.032ms returns 0
T6D9C 000:939.190 JLINK_WriteReg(R3, 0x00000000)
T6D9C 000:939.212 - 0.032ms returns 0
T6D9C 000:939.235 JLINK_WriteReg(R4, 0x00000000)
T6D9C 000:939.256 - 0.032ms returns 0
T6D9C 000:939.279 JLINK_WriteReg(R5, 0x00000000)
T6D9C 000:939.300 - 0.032ms returns 0
T6D9C 000:939.323 JLINK_WriteReg(R6, 0x00000000)
T6D9C 000:939.344 - 0.032ms returns 0
